Freq.	V(vout)
1.00000000000000e+00	(-4.81072976654123e+01dB,1.72729164090225e+02°)
1.00230523807790e+00	(-4.80674549232714e+01dB,1.72712446705943e+02°)
1.00461579027839e+00	(-4.80276129041184e+01dB,1.72695691085536e+02°)
1.00693166885180e+00	(-4.79877716112641e+01dB,1.72678897142936e+02°)
1.00925288607668e+00	(-4.79479310480340e+01dB,1.72662064791897e+02°)
1.01157945425990e+00	(-4.79080912177688e+01dB,1.72645193945983e+02°)
1.01391138573668e+00	(-4.78682521238246e+01dB,1.72628284518577e+02°)
1.01624869287070e+00	(-4.78284137695724e+01dB,1.72611336422874e+02°)
1.01859138805412e+00	(-4.77885761583987e+01dB,1.72594349571887e+02°)
1.02093948370768e+00	(-4.77487392937054e+01dB,1.72577323878440e+02°)
1.02329299228075e+00	(-4.77089031789098e+01dB,1.72560259255172e+02°)
1.02565192625141e+00	(-4.76690678174446e+01dB,1.72543155614536e+02°)
1.02801629812647e+00	(-4.76292332127582e+01dB,1.72526012868799e+02°)
1.03038612044162e+00	(-4.75893993683147e+01dB,1.72508830930039e+02°)
1.03276140576140e+00	(-4.75495662875938e+01dB,1.72491609710148e+02°)
1.03514216667934e+00	(-4.75097339740910e+01dB,1.72474349120830e+02°)
1.03752841581801e+00	(-4.74699024313178e+01dB,1.72457049073600e+02°)
1.03992016582906e+00	(-4.74300716628015e+01dB,1.72439709479787e+02°)
1.04231742939330e+00	(-4.73902416720855e+01dB,1.72422330250528e+02°)
1.04472021922080e+00	(-4.73504124627292e+01dB,1.72404911296773e+02°)
1.04712854805090e+00	(-4.73105840383081e+01dB,1.72387452529284e+02°)
1.04954242865232e+00	(-4.72707564024140e+01dB,1.72369953858629e+02°)
1.05196187382322e+00	(-4.72309295586550e+01dB,1.72352415195191e+02°)
1.05438689639126e+00	(-4.71911035106555e+01dB,1.72334836449160e+02°)
1.05681750921366e+00	(-4.71512782620565e+01dB,1.72317217530534e+02°)
1.05925372517729e+00	(-4.71114538165153e+01dB,1.72299558349123e+02°)
1.06169555719872e+00	(-4.70716301777058e+01dB,1.72281858814544e+02°)
1.06414301822431e+00	(-4.70318073493188e+01dB,1.72264118836222e+02°)
1.06659612123026e+00	(-4.69919853350615e+01dB,1.72246338323392e+02°)
1.06905487922266e+00	(-4.69521641386581e+01dB,1.72228517185094e+02°)
1.07151930523760e+00	(-4.69123437638497e+01dB,1.72210655330177e+02°)
1.07398941234124e+00	(-4.68725242143943e+01dB,1.72192752667297e+02°)
1.07646521362983e+00	(-4.68327054940669e+01dB,1.72174809104917e+02°)
1.07894672222983e+00	(-4.67928876066596e+01dB,1.72156824551304e+02°)
1.08143395129794e+00	(-4.67530705559818e+01dB,1.72138798914534e+02°)
1.08392691402120e+00	(-4.67132543458600e+01dB,1.72120732102488e+02°)
1.08642562361706e+00	(-4.66734389801382e+01dB,1.72102624022852e+02°)
1.08893009333343e+00	(-4.66336244626776e+01dB,1.72084474583115e+02°)
1.09144033644875e+00	(-4.65938107973571e+01dB,1.72066283690575e+02°)
1.09395636627209e+00	(-4.65539979880731e+01dB,1.72048051252332e+02°)
1.09647819614318e+00	(-4.65141860387396e+01dB,1.72029777175289e+02°)
1.09900583943252e+00	(-4.64743749532884e+01dB,1.72011461366154e+02°)
1.10153930954141e+00	(-4.64345647356690e+01dB,1.71993103731440e+02°)
1.10407861990207e+00	(-4.63947553898488e+01dB,1.71974704177460e+02°)
1.10662378397766e+00	(-4.63549469198133e+01dB,1.71956262610331e+02°)
1.10917481526240e+00	(-4.63151393295660e+01dB,1.71937778935975e+02°)
1.11173172728159e+00	(-4.62753326231282e+01dB,1.71919253060112e+02°)
1.11429453359173e+00	(-4.62355268045399e+01dB,1.71900684888265e+02°)
1.11686324778056e+00	(-4.61957218778591e+01dB,1.71882074325761e+02°)
1.11943788346715e+00	(-4.61559178471621e+01dB,1.71863421277725e+02°)
1.12201845430196e+00	(-4.61161147165438e+01dB,1.71844725649085e+02°)
1.12460497396692e+00	(-4.60763124901177e+01dB,1.71825987344567e+02°)
1.12719745617551e+00	(-4.60365111720157e+01dB,1.71807206268701e+02°)
1.12979591467279e+00	(-4.59967107663884e+01dB,1.71788382325812e+02°)
1.13240036323555e+00	(-4.59569112774053e+01dB,1.71769515420028e+02°)
1.13501081567231e+00	(-4.59171127092548e+01dB,1.71750605455276e+02°)
1.13762728582343e+00	(-4.58773150661440e+01dB,1.71731652335281e+02°)
1.14024978756117e+00	(-4.58375183522993e+01dB,1.71712655963565e+02°)
1.14287833478977e+00	(-4.57977225719660e+01dB,1.71693616243452e+02°)
1.14551294144553e+00	(-4.57579277294087e+01dB,1.71674533078059e+02°)
1.14815362149688e+00	(-4.57181338289112e+01dB,1.71655406370306e+02°)
1.15080038894443e+00	(-4.56783408747768e+01dB,1.71636236022906e+02°)
1.15345325782109e+00	(-4.56385488713281e+01dB,1.71617021938370e+02°)
1.15611224219210e+00	(-4.55987578229073e+01dB,1.71597764019007e+02°)
1.15877735615512e+00	(-4.55589677338762e+01dB,1.71578462166921e+02°)
1.16144861384034e+00	(-4.55191786086164e+01dB,1.71559116284012e+02°)
1.16412602941049e+00	(-4.54793904515291e+01dB,1.71539726271975e+02°)
1.16680961706096e+00	(-4.54396032670355e+01dB,1.71520292032302e+02°)
1.16949939101987e+00	(-4.53998170595769e+01dB,1.71500813466278e+02°)
1.17219536554813e+00	(-4.53600318336144e+01dB,1.71481290474985e+02°)
1.17489755493953e+00	(-4.53202475936295e+01dB,1.71461722959297e+02°)
1.17760597352080e+00	(-4.52804643441237e+01dB,1.71442110819884e+02°)
1.18032063565173e+00	(-4.52406820896189e+01dB,1.71422453957207e+02°)
1.18304155572516e+00	(-4.52009008346575e+01dB,1.71402752271522e+02°)
1.18576874816716e+00	(-4.51611205838024e+01dB,1.71383005662880e+02°)
1.18850222743701e+00	(-4.51213413416369e+01dB,1.71363214031121e+02°)
1.19124200802737e+00	(-4.50815631127653e+01dB,1.71343377275880e+02°)
1.19398810446427e+00	(-4.50417859018125e+01dB,1.71323495296582e+02°)
1.19674053130724e+00	(-4.50020097134241e+01dB,1.71303567992446e+02°)
1.19949930314937e+00	(-4.49622345522670e+01dB,1.71283595262481e+02°)
1.20226443461741e+00	(-4.49224604230289e+01dB,1.71263577005487e+02°)
1.20503594037179e+00	(-4.48826873304188e+01dB,1.71243513120056e+02°)
1.20781383510677e+00	(-4.48429152791668e+01dB,1.71223403504570e+02°)
1.21059813355048e+00	(-4.48031442740244e+01dB,1.71203248057199e+02°)
1.21338885046497e+00	(-4.47633743197646e+01dB,1.71183046675907e+02°)
1.21618600064636e+00	(-4.47236054211819e+01dB,1.71162799258443e+02°)
1.21898959892486e+00	(-4.46838375830922e+01dB,1.71142505702349e+02°)
1.22179966016487e+00	(-4.46440708103334e+01dB,1.71122165904953e+02°)
1.22461619926504e+00	(-4.46043051077650e+01dB,1.71101779763375e+02°)
1.22743923115840e+00	(-4.45645404802685e+01dB,1.71081347174518e+02°)
1.23026877081238e+00	(-4.45247769327474e+01dB,1.71060868035079e+02°)
1.23310483322890e+00	(-4.44850144701272e+01dB,1.71040342241538e+02°)
1.23594743344450e+00	(-4.44452530973558e+01dB,1.71019769690163e+02°)
1.23879658653036e+00	(-4.44054928194032e+01dB,1.70999150277012e+02°)
1.24165230759240e+00	(-4.43657336412617e+01dB,1.70978483897927e+02°)
1.24451461177138e+00	(-4.43259755679464e+01dB,1.70957770448536e+02°)
1.24738351424294e+00	(-4.42862186044947e+01dB,1.70937009824255e+02°)
1.25025903021771e+00	(-4.42464627559669e+01dB,1.70916201920285e+02°)
1.25314117494141e+00	(-4.42067080274458e+01dB,1.70895346631611e+02°)
1.25602996369487e+00	(-4.41669544240373e+01dB,1.70874443853004e+02°)
1.25892541179416e+00	(-4.41272019508703e+01dB,1.70853493479022e+02°)
1.26182753459066e+00	(-4.40874506130968e+01dB,1.70832495404003e+02°)
1.26473634747114e+00	(-4.40477004158917e+01dB,1.70811449522074e+02°)
1.26765186585784e+00	(-4.40079513644534e+01dB,1.70790355727142e+02°)
1.27057410520853e+00	(-4.39682034640038e+01dB,1.70769213912901e+02°)
1.27350308101665e+00	(-4.39284567197881e+01dB,1.70748023972824e+02°)
1.27643880881134e+00	(-4.38887111370752e+01dB,1.70726785800170e+02°)
1.27938130415752e+00	(-4.38489667211575e+01dB,1.70705499287982e+02°)
1.28233058265601e+00	(-4.38092234773516e+01dB,1.70684164329080e+02°)
1.28528665994361e+00	(-4.37694814109975e+01dB,1.70662780816072e+02°)
1.28824955169313e+00	(-4.37297405274596e+01dB,1.70641348641344e+02°)
1.29121927361353e+00	(-4.36900008321263e+01dB,1.70619867697064e+02°)
1.29419584144998e+00	(-4.36502623304100e+01dB,1.70598337875183e+02°)
1.29717927098395e+00	(-4.36105250277479e+01dB,1.70576759067429e+02°)
1.30016957803328e+00	(-4.35707889296012e+01dB,1.70555131165315e+02°)
1.30316677845229e+00	(-4.35310540414558e+01dB,1.70533454060131e+02°)
1.30617088813183e+00	(-4.34913203688222e+01dB,1.70511727642948e+02°)
1.30918192299940e+00	(-4.34515879172357e+01dB,1.70489951804617e+02°)
1.31219989901919e+00	(-4.34118566922566e+01dB,1.70468126435767e+02°)
1.31522483219223e+00	(-4.33721266994697e+01dB,1.70446251426808e+02°)
1.31825673855640e+00	(-4.33323979444855e+01dB,1.70424326667926e+02°)
1.32129563418657e+00	(-4.32926704329392e+01dB,1.70402352049088e+02°)
1.32434153519466e+00	(-4.32529441704916e+01dB,1.70380327460037e+02°)
1.32739445772973e+00	(-4.32132191628286e+01dB,1.70358252790296e+02°)
1.33045441797808e+00	(-4.31734954156620e+01dB,1.70336127929163e+02°)
1.33352143216332e+00	(-4.31337729347289e+01dB,1.70313952765716e+02°)
1.33659551654643e+00	(-4.30940517257923e+01dB,1.70291727188807e+02°)
1.33967668742593e+00	(-4.30543317946410e+01dB,1.70269451087066e+02°)
1.34276496113785e+00	(-4.30146131470899e+01dB,1.70247124348901e+02°)
1.34586035405594e+00	(-4.29748957889798e+01dB,1.70224746862492e+02°)
1.34896288259164e+00	(-4.29351797261776e+01dB,1.70202318515800e+02°)
1.35207256319427e+00	(-4.28954649645770e+01dB,1.70179839196556e+02°)
1.35518941235103e+00	(-4.28557515100975e+01dB,1.70157308792269e+02°)
1.35831344658714e+00	(-4.28160393686855e+01dB,1.70134727190225e+02°)
1.36144468246594e+00	(-4.27763285463140e+01dB,1.70112094277479e+02°)
1.36458313658891e+00	(-4.27366190489827e+01dB,1.70089409940866e+02°)
1.36772882559584e+00	(-4.26969108827182e+01dB,1.70066674066990e+02°)
1.37088176616484e+00	(-4.26572040535742e+01dB,1.70043886542234e+02°)
1.37404197501251e+00	(-4.26174985676314e+01dB,1.70021047252750e+02°)
1.37720946889394e+00	(-4.25777944309977e+01dB,1.69998156084465e+02°)
1.38038426460287e+00	(-4.25380916498084e+01dB,1.69975212923078e+02°)
1.38356637897177e+00	(-4.24983902302264e+01dB,1.69952217654063e+02°)
1.38675582887188e+00	(-4.24586901784420e+01dB,1.69929170162663e+02°)
1.38995263121334e+00	(-4.24189915006732e+01dB,1.69906070333896e+02°)
1.39315680294529e+00	(-4.23792942031661e+01dB,1.69882918052548e+02°)
1.39636836105593e+00	(-4.23395982921945e+01dB,1.69859713203182e+02°)
1.39958732257261e+00	(-4.22999037740602e+01dB,1.69836455670126e+02°)
1.40281370456195e+00	(-4.22602106550935e+01dB,1.69813145337484e+02°)
1.40604752412990e+00	(-4.22205189416527e+01dB,1.69789782089127e+02°)
1.40928879842186e+00	(-4.21808286401248e+01dB,1.69766365808700e+02°)
1.41253754462274e+00	(-4.21411397569251e+01dB,1.69742896379614e+02°)
1.41579377995707e+00	(-4.21014522984978e+01dB,1.69719373685052e+02°)
1.41905752168908e+00	(-4.20617662713158e+01dB,1.69695797607968e+02°)
1.42232878712281e+00	(-4.20220816818810e+01dB,1.69672168031082e+02°)
1.42560759360218e+00	(-4.19823985367243e+01dB,1.69648484836886e+02°)
1.42889395851109e+00	(-4.19427168424056e+01dB,1.69624747907638e+02°)
1.43218789927353e+00	(-4.19030366055146e+01dB,1.69600957125367e+02°)
1.43548943335364e+00	(-4.18633578326699e+01dB,1.69577112371869e+02°)
1.43879857825583e+00	(-4.18236805305200e+01dB,1.69553213528708e+02°)
1.44211535152486e+00	(-4.17840047057430e+01dB,1.69529260477216e+02°)
1.44543977074592e+00	(-4.17443303650467e+01dB,1.69505253098492e+02°)
1.44877185354475e+00	(-4.17046575151690e+01dB,1.69481191273401e+02°)
1.45211161758773e+00	(-4.16649861628779e+01dB,1.69457074882579e+02°)
1.45545908058195e+00	(-4.16253163149713e+01dB,1.69432903806423e+02°)
1.45881426027534e+00	(-4.15856479782779e+01dB,1.69408677925102e+02°)
1.46217717445671e+00	(-4.15459811596564e+01dB,1.69384397118546e+02°)
1.46554784095590e+00	(-4.15063158659964e+01dB,1.69360061266455e+02°)
1.46892627764385e+00	(-4.14666521042182e+01dB,1.69335670248292e+02°)
1.47231250243271e+00	(-4.14269898812728e+01dB,1.69311223943287e+02°)
1.47570653327588e+00	(-4.13873292041423e+01dB,1.69286722230433e+02°)
1.47910838816819e+00	(-4.13476700798400e+01dB,1.69262164988491e+02°)
1.48251808514594e+00	(-4.13080125154102e+01dB,1.69237552095985e+02°)
1.48593564228699e+00	(-4.12683565179289e+01dB,1.69212883431202e+02°)
1.48936107771090e+00	(-4.12287020945035e+01dB,1.69188158872195e+02°)
1.49279440957898e+00	(-4.11890492522729e+01dB,1.69163378296780e+02°)
1.49623565609442e+00	(-4.11493979984080e+01dB,1.69138541582537e+02°)
1.49968483550236e+00	(-4.11097483401117e+01dB,1.69113648606810e+02°)
1.50314196609001e+00	(-4.10701002846186e+01dB,1.69088699246705e+02°)
1.50660706618673e+00	(-4.10304538391960e+01dB,1.69063693379092e+02°)
1.51008015416413e+00	(-4.09908090111432e+01dB,1.69038630880603e+02°)
1.51356124843619e+00	(-4.09511658077921e+01dB,1.69013511627632e+02°)
1.51705036745932e+00	(-4.09115242365072e+01dB,1.68988335496336e+02°)
1.52054752973248e+00	(-4.08718843046858e+01dB,1.68963102362635e+02°)
1.52405275379728e+00	(-4.08322460197580e+01dB,1.68937812102208e+02°)
1.52756605823806e+00	(-4.07926093891871e+01dB,1.68912464590498e+02°)
1.53108746168201e+00	(-4.07529744204695e+01dB,1.68887059702708e+02°)
1.53461698279928e+00	(-4.07133411211348e+01dB,1.68861597313803e+02°)
1.53815464030302e+00	(-4.06737094987464e+01dB,1.68836077298507e+02°)
1.54170045294954e+00	(-4.06340795609010e+01dB,1.68810499531308e+02°)
1.54525443953840e+00	(-4.05944513152292e+01dB,1.68784863886452e+02°)
1.54881661891247e+00	(-4.05548247693953e+01dB,1.68759170237945e+02°)
1.55238700995807e+00	(-4.05151999310981e+01dB,1.68733418459553e+02°)
1.55596563160506e+00	(-4.04755768080701e+01dB,1.68707608424803e+02°)
1.55955250282694e+00	(-4.04359554080783e+01dB,1.68681740006981e+02°)
1.56314764264094e+00	(-4.03963357389244e+01dB,1.68655813079132e+02°)
1.56675107010813e+00	(-4.03567178084443e+01dB,1.68629827514060e+02°)
1.57036280433354e+00	(-4.03171016245091e+01dB,1.68603783184329e+02°)
1.57398286446620e+00	(-4.02774871950245e+01dB,1.68577679962260e+02°)
1.57761126969933e+00	(-4.02378745279315e+01dB,1.68551517719934e+02°)
1.58124803927037e+00	(-4.01982636312063e+01dB,1.68525296329190e+02°)
1.58489319246110e+00	(-4.01586545128601e+01dB,1.68499015661624e+02°)
1.58854674859776e+00	(-4.01190471809402e+01dB,1.68472675588591e+02°)
1.59220872705115e+00	(-4.00794416435291e+01dB,1.68446275981203e+02°)
1.59587914723672e+00	(-4.00398379087454e+01dB,1.68419816710331e+02°)
1.59955802861465e+00	(-4.00002359847436e+01dB,1.68393297646601e+02°)
1.60324539069002e+00	(-3.99606358797142e+01dB,1.68366718660398e+02°)
1.60694125301286e+00	(-3.99210376018842e+01dB,1.68340079621863e+02°)
1.61064563517825e+00	(-3.98814411595168e+01dB,1.68313380400894e+02°)
1.61435855682647e+00	(-3.98418465609119e+01dB,1.68286620867145e+02°)
1.61808003764305e+00	(-3.98022538144063e+01dB,1.68259800890028e+02°)
1.62181009735891e+00	(-3.97626629283733e+01dB,1.68232920338709e+02°)
1.62554875575047e+00	(-3.97230739112237e+01dB,1.68205979082111e+02°)
1.62929603263970e+00	(-3.96834867714052e+01dB,1.68178976988913e+02°)
1.63305194789432e+00	(-3.96439015174030e+01dB,1.68151913927549e+02°)
1.63681652142779e+00	(-3.96043181577397e+01dB,1.68124789766210e+02°)
1.64058977319952e+00	(-3.95647367009758e+01dB,1.68097604372841e+02°)
1.64437172321491e+00	(-3.95251571557095e+01dB,1.68070357615142e+02°)
1.64816239152549e+00	(-3.94855795305769e+01dB,1.68043049360568e+02°)
1.65196179822900e+00	(-3.94460038342526e+01dB,1.68015679476329e+02°)
1.65576996346951e+00	(-3.94064300754490e+01dB,1.67988247829390e+02°)
1.65958690743754e+00	(-3.93668582629176e+01dB,1.67960754286471e+02°)
1.66341265037015e+00	(-3.93272884054480e+01dB,1.67933198714045e+02°)
1.66724721255104e+00	(-3.92877205118689e+01dB,1.67905580978339e+02°)
1.67109061431069e+00	(-3.92481545910480e+01dB,1.67877900945335e+02°)
1.67494287602642e+00	(-3.92085906518919e+01dB,1.67850158480768e+02°)
1.67880401812254e+00	(-3.91690287033468e+01dB,1.67822353450128e+02°)
1.68267406107045e+00	(-3.91294687543981e+01dB,1.67794485718657e+02°)
1.68655302538872e+00	(-3.90899108140709e+01dB,1.67766555151352e+02°)
1.69044093164324e+00	(-3.90503548914303e+01dB,1.67738561612962e+02°)
1.69433780044731e+00	(-3.90108009955811e+01dB,1.67710504967989e+02°)
1.69824365246172e+00	(-3.89712491356683e+01dB,1.67682385080688e+02°)
1.70215850839493e+00	(-3.89316993208773e+01dB,1.67654201815069e+02°)
1.70608238900310e+00	(-3.88921515604339e+01dB,1.67625955034891e+02°)
1.71001531509027e+00	(-3.88526058636045e+01dB,1.67597644603669e+02°)
1.71395730750840e+00	(-3.88130622396964e+01dB,1.67569270384669e+02°)
1.71790838715757e+00	(-3.87735206980577e+01dB,1.67540832240908e+02°)
1.72186857498599e+00	(-3.87339812480779e+01dB,1.67512330035158e+02°)
1.72583789199018e+00	(-3.86944438991877e+01dB,1.67483763629941e+02°)
1.72981635921508e+00	(-3.86549086608592e+01dB,1.67455132887532e+02°)
1.73380399775412e+00	(-3.86153755426063e+01dB,1.67426437669956e+02°)
1.73780082874935e+00	(-3.85758445539847e+01dB,1.67397677838993e+02°)
1.74180687339159e+00	(-3.85363157045920e+01dB,1.67368853256172e+02°)
1.74582215292048e+00	(-3.84967890040683e+01dB,1.67339963782775e+02°)
1.74984668862463e+00	(-3.84572644620957e+01dB,1.67311009279833e+02°)
1.75388050184174e+00	(-3.84177420883992e+01dB,1.67281989608132e+02°)
1.75792361395867e+00	(-3.83782218927461e+01dB,1.67252904628206e+02°)
1.76197604641161e+00	(-3.83387038849470e+01dB,1.67223754200342e+02°)
1.76603782068614e+00	(-3.82991880748553e+01dB,1.67194538184578e+02°)
1.77010895831740e+00	(-3.82596744723678e+01dB,1.67165256440701e+02°)
1.77418948089014e+00	(-3.82201630874247e+01dB,1.67135908828250e+02°)
1.77827941003890e+00	(-3.81806539300098e+01dB,1.67106495206516e+02°)
1.78237876744807e+00	(-3.81411470101507e+01dB,1.67077015434540e+02°)
1.78648757485203e+00	(-3.81016423379190e+01dB,1.67047469371112e+02°)
1.79060585403527e+00	(-3.80621399234304e+01dB,1.67017856874775e+02°)
1.79473362683250e+00	(-3.80226397768450e+01dB,1.66988177803820e+02°)
1.79887091512876e+00	(-3.79831419083674e+01dB,1.66958432016290e+02°)
1.80301774085954e+00	(-3.79436463282469e+01dB,1.66928619369979e+02°)
1.80717412601090e+00	(-3.79041530467777e+01dB,1.66898739722429e+02°)
1.81134009261958e+00	(-3.78646620742992e+01dB,1.66868792930933e+02°)
1.81551566277311e+00	(-3.78251734211958e+01dB,1.66838778852536e+02°)
1.81970085860996e+00	(-3.77856870978976e+01dB,1.66808697344030e+02°)
1.82389570231961e+00	(-3.77462031148802e+01dB,1.66778548261960e+02°)
1.82810021614272e+00	(-3.77067214826651e+01dB,1.66748331462619e+02°)
1.83231442237119e+00	(-3.76672422118199e+01dB,1.66718046802051e+02°)
1.83653834334832e+00	(-3.76277653129581e+01dB,1.66687694136049e+02°)
1.84077200146893e+00	(-3.75882907967400e+01dB,1.66657273320156e+02°)
1.84501541917945e+00	(-3.75488186738721e+01dB,1.66626784209666e+02°)
1.84926861897805e+00	(-3.75093489551081e+01dB,1.66596226659622e+02°)
1.85353162341478e+00	(-3.74698816512482e+01dB,1.66565600524816e+02°)
1.85780445509167e+00	(-3.74304167731401e+01dB,1.66534905659791e+02°)
1.86208713666284e+00	(-3.73909543316789e+01dB,1.66504141918839e+02°)
1.86637969083464e+00	(-3.73514943378069e+01dB,1.66473309156003e+02°)
1.87068214036577e+00	(-3.73120368025146e+01dB,1.66442407225072e+02°)
1.87499450806739e+00	(-3.72725817368399e+01dB,1.66411435979590e+02°)
1.87931681680324e+00	(-3.72331291518695e+01dB,1.66380395272847e+02°)
1.88364908948977e+00	(-3.71936790587378e+01dB,1.66349284957884e+02°)
1.88799134909627e+00	(-3.71542314686282e+01dB,1.66318104887490e+02°)
1.89234361864495e+00	(-3.71147863927726e+01dB,1.66286854914207e+02°)
1.89670592121112e+00	(-3.70753438424518e+01dB,1.66255534890323e+02°)
1.90107827992327e+00	(-3.70359038289960e+01dB,1.66224144667879e+02°)
1.90546071796322e+00	(-3.69964663637844e+01dB,1.66192684098663e+02°)
1.90985325856621e+00	(-3.69570314582459e+01dB,1.66161153034215e+02°)
1.91425592502106e+00	(-3.69175991238592e+01dB,1.66129551325822e+02°)
1.91866874067026e+00	(-3.68781693721528e+01dB,1.66097878824524e+02°)
1.92309172891013e+00	(-3.68387422147054e+01dB,1.66066135381108e+02°)
