time	V(senoidal)	V(vout)
0.000000000000000e+00	0.000000e+00	0.000000e+00
9.999999717180685e-10	1.998053e-06	2.305370e-07
1.914285660146017e-08	3.824844e-05	4.178726e-06
3.728571323120228e-08	7.449883e-05	7.452085e-06
5.542856986094439e-08	1.107492e-04	1.005061e-05
7.357142649068649e-08	1.469996e-04	1.197431e-05
9.171428312042859e-08	1.832500e-04	1.322318e-05
1.098571397501707e-07	2.195004e-04	1.379722e-05
1.279999963799128e-07	2.557508e-04	1.369643e-05
1.873541905104008e-07	3.743436e-04	1.492590e-05
2.424717315586710e-07	4.844713e-04	1.718326e-05
3.088518758935367e-07	6.171024e-04	1.987541e-05
3.817051640561035e-07	7.626670e-04	2.143374e-05
5.059490239433115e-07	1.010913e-03	2.204029e-05
6.813238406208411e-06	1.361700e-02	1.907490e-05
1.312052778847351e-05	2.621618e-02	2.229321e-05
1.942781717073861e-05	3.880847e-02	3.169521e-05
2.573510655300371e-05	5.139386e-02	4.728090e-05
3.204239593526881e-05	6.397236e-02	6.905028e-05
3.834968531753391e-05	7.654395e-02	9.700335e-05
4.465697469979900e-05	8.910865e-02	1.311401e-04
5.901205653884243e-05	1.176362e-01	2.706418e-04
7.792182316676457e-05	1.550637e-01	5.886362e-04
1.000000000010000e-04	1.984785e-01	1.207611e-03
1.344704739066982e-04	2.654582e-01	2.872037e-03
1.766104966061164e-04	3.455991e-01	6.371325e-03
2.377795929227582e-04	4.574240e-01	1.512866e-02
3.175745590510988e-04	5.927997e-01	3.463700e-02
4.175745590510987e-04	7.408507e-01	7.437488e-02
5.175745590510987e-04	8.594237e-01	1.327314e-01
6.175745590510988e-04	9.438006e-01	2.097899e-01
7.175745590510988e-04	9.906241e-01	3.037457e-01
8.077053154878081e-04	9.990739e-01	4.000587e-01
8.684060560690308e-04	9.865290e-01	4.693718e-01
9.670181309265210e-04	9.354179e-01	5.850762e-01
1.067018130926521e-03	8.466371e-01	7.007258e-01
1.167018130926521e-03	7.241690e-01	8.072672e-01
1.267018130926521e-03	5.728866e-01	8.970558e-01
1.367018130926521e-03	3.988093e-01	9.627283e-01
1.467018130926521e-03	2.088636e-01	9.976593e-01
1.567018130926521e-03	1.060729e-02	9.963819e-01
1.667018130926521e-03	-1.880711e-01	9.549540e-01
1.767018130926521e-03	-3.792662e-01	8.712478e-01
1.867018130926521e-03	-5.553705e-01	7.451510e-01
1.967018130926521e-03	-7.093768e-01	5.786659e-01
2.067018130926521e-03	-8.351575e-01	3.759028e-01
2.167018130926521e-03	-9.277076e-01	1.429668e-01
2.267018130926521e-03	-9.833446e-01	-1.122582e-01
2.367018130926521e-03	-9.998549e-01	-3.804187e-01
2.419545710043202e-03	-9.925683e-01	-5.233248e-01
2.504982520386454e-03	-9.574687e-01	-7.527753e-01
2.604982520386454e-03	-8.811517e-01	-1.008658e+00
2.704982520386453e-03	-7.697740e-01	-1.240554e+00
2.804982520386453e-03	-6.277674e-01	-1.437894e+00
2.904982520386453e-03	-4.607823e-01	-1.591165e+00
3.004982520386453e-03	-2.754629e-01	-1.692369e+00
3.104982520386453e-03	-7.918292e-02	-1.735428e+00
3.204982520386453e-03	1.202477e-01	-1.716501e+00
3.304982520386452e-03	3.148937e-01	-1.634218e+00
3.404982520386452e-03	4.970103e-01	-1.489808e+00
3.504982520386452e-03	6.593511e-01	-1.287110e+00
3.604982520386452e-03	7.954565e-01	-1.032478e+00
3.704982520386452e-03	8.999112e-01	-7.345693e-01
3.804982520386452e-03	9.685588e-01	-4.040298e-01
3.904982520386451e-03	9.986680e-01	-5.309373e-02
3.968377789295745e-03	9.971853e-01	1.743542e-01
4.039125210839318e-03	9.766758e-01	4.271173e-01
4.139125210839319e-03	9.146280e-01	7.726725e-01
4.239125210839319e-03	8.161874e-01	1.092759e+00
4.339125210839319e-03	6.852713e-01	1.374345e+00
4.439125210839319e-03	5.270885e-01	1.605712e+00
4.539125210839320e-03	3.479331e-01	1.776953e+00
4.639125210839320e-03	1.549336e-01	1.880409e+00
4.739125210839320e-03	-4.423061e-02	1.911016e+00
4.839125210839321e-03	-2.416349e-01	1.866545e+00
4.939125210839321e-03	-4.294247e-01	1.747734e+00
5.039125210839321e-03	-6.001278e-01	1.558298e+00
5.139125210839321e-03	-7.469522e-01	1.304813e+00
5.239125210839322e-03	-8.640557e-01	9.964868e-01
5.339125210839322e-03	-9.467788e-01	6.448179e-01
5.439125210839322e-03	-9.918301e-01	2.631557e-01
5.526410021546370e-03	-9.989197e-01	-8.329253e-02
5.588192630249522e-03	-9.855965e-01	-3.302943e-01
5.688192630249523e-03	-9.324229e-01	-7.213338e-01
5.788192630249523e-03	-8.421486e-01	-1.089119e+00
5.888192630249523e-03	-7.183656e-01	-1.419007e+00
5.988192630249523e-03	-5.659992e-01	-1.697728e+00
6.088192630249524e-03	-3.911120e-01	-1.913931e+00
6.188192630249524e-03	-2.006626e-01	-2.058653e+00
6.288192630249524e-03	-2.228918e-03	-2.125688e+00
6.388192630249524e-03	1.962934e-01	-2.111867e+00
6.488192630249525e-03	3.870054e-01	-2.017192e+00
6.588192630249525e-03	5.623186e-01	-1.844869e+00
6.688192630249525e-03	7.152573e-01	-1.601192e+00
6.788192630249525e-03	8.397364e-01	-1.295314e+00
6.888192630249526e-03	9.308027e-01	-9.389008e-01
6.988192630249526e-03	9.848329e-01	-5.456787e-01
7.088192630249526e-03	9.996770e-01	-1.308997e-01
7.143354378391177e-03	9.908159e-01	1.017857e-01
7.233045482443009e-03	9.508457e-01	4.758417e-01
7.333045482443009e-03	8.704670e-01	8.746159e-01
7.433045482443009e-03	7.554528e-01	1.239240e+00
7.533045482443010e-03	6.103796e-01	1.555272e+00
7.633045482443010e-03	4.410196e-01	1.810130e+00
7.733045482443010e-03	2.541116e-01	1.993605e+00
7.833045482443009e-03	5.709275e-02	2.098269e+00
7.933045482443009e-03	-1.421979e-01	2.119784e+00
8.033045482443008e-03	-3.358305e-01	2.057084e+00
8.133045482443008e-03	-5.161006e-01	1.912427e+00
8.233045482443007e-03	-6.758353e-01	1.691319e+00
8.333045482443006e-03	-8.086788e-01	1.402301e+00
8.433045482443006e-03	-9.093454e-01	1.056623e+00
8.533045482443005e-03	-9.738296e-01	6.678041e-01
8.633045482443005e-03	-9.995655e-01	2.511007e-01
8.689483697801094e-03	-9.965335e-01	9.224397e-03
8.762814667992341e-03	-9.737102e-01	-3.053043e-01
8.862814667992340e-03	-9.091269e-01	-7.232035e-01
8.962814667992340e-03	-8.083699e-01	-1.114126e+00
9.062814667992339e-03	-6.754484e-01	-1.462586e+00
9.162814667992339e-03	-5.156510e-01	-1.754747e+00
9.262814667992338e-03	-3.353361e-01	-1.978976e+00
9.362814667992337e-03	-1.416783e-01	-2.126306e+00
9.462814667992337e-03	5.761670e-02	-2.190801e+00
9.562814667992336e-03	2.546192e-01	-2.169793e+00
9.662814667992336e-03	4.414906e-01	-2.063994e+00
9.762814667992335e-03	6.107952e-01	-1.877474e+00
9.862814667992334e-03	7.557966e-01	-1.617504e+00
9.962814667992334e-03	8.707252e-01	-1.294271e+00
1.006281466799233e-02	9.510081e-01	-9.204815e-01
1.016281466799233e-02	9.934508e-01	-5.108564e-01
1.024591547126402e-02	9.986727e-01	-1.543947e-01
1.030928224957044e-02	9.841751e-01	1.208154e-01
1.040928224957044e-02	9.294251e-01	5.482569e-01
1.050928224957044e-02	8.376936e-01	9.535294e-01
1.060928224957044e-02	7.126308e-01	1.320595e+00
1.070928224957044e-02	5.592127e-01	1.634916e+00
1.080928224957044e-02	3.835438e-01	1.884034e+00
1.090928224957044e-02	1.926139e-01	2.058062e+00
1.100928224957044e-02	-5.980019e-03	2.150083e+00
1.110928224957044e-02	-2.043360e-01	2.156426e+00
1.120928224957043e-02	-3.945616e-01	2.076813e+00
1.130928224957043e-02	-5.690877e-01	1.914374e+00
1.140928224957043e-02	-7.209701e-01	1.675523e+00
1.150928224957043e-02	-8.441654e-01	1.369708e+00
1.160928224957043e-02	-9.337719e-01	1.009038e+00
1.170928224957043e-02	-9.862240e-01	6.078014e-01
1.180846948945880e-02	-9.994880e-01	1.853963e-01
1.186570114694326e-02	-9.893094e-01	-6.349582e-02
1.195873010966025e-02	-9.453171e-01	-4.645326e-01
1.205873010966025e-02	-8.617760e-01	-8.777970e-01
1.215873010966025e-02	-7.439452e-01	-1.256788e+00
1.225873010966025e-02	-5.965132e-01	-1.586459e+00
1.235873010966025e-02	-4.253462e-01	-1.853713e+00
1.245873010966025e-02	-2.372549e-01	-2.047928e+00
1.255873010966025e-02	-3.972331e-02	-2.161376e+00
1.265873010966025e-02	1.593888e-01	-2.189534e+00
1.275873010966025e-02	3.521589e-01	-2.131264e+00
1.285873010966025e-02	5.309169e-01	-1.988855e+00
1.295873010966025e-02	6.885498e-01	-1.767942e+00
1.305873010966025e-02	8.187857e-01	-1.477273e+00
1.315873010966025e-02	9.164425e-01	-1.128371e+00
1.325873010966025e-02	9.776345e-01	-7.350716e-01
1.335873010966025e-02	9.999269e-01	-3.129762e-01
1.340970100758979e-02	9.959747e-01	-9.156872e-02
1.348505771857621e-02	9.712615e-01	2.363215e-01
1.358505771857621e-02	9.046977e-01	6.610280e-01
1.368505771857621e-02	8.021363e-01	1.059134e+00
1.378505771857621e-02	6.676584e-01	1.414839e+00
1.388505771857621e-02	5.066146e-01	1.714026e+00
1.398505771857621e-02	3.254129e-01	1.944818e+00
1.408505771857621e-02	1.312632e-01	2.098057e+00
1.418505771857621e-02	-6.810945e-02	2.167661e+00
1.428505771857621e-02	-2.647720e-01	2.150874e+00
1.438505771857621e-02	-4.508995e-01	2.048367e+00
1.448505771857621e-02	-6.190858e-01	1.864221e+00
1.458505771857621e-02	-7.626390e-01	1.605757e+00
1.468505771857621e-02	-8.758473e-01	1.283253e+00
1.478505771857620e-02	-9.542059e-01	9.095304e-01
1.488505771857620e-02	-9.945972e-01	4.994454e-01
1.496487208829498e-02	-9.984616e-01	1.565076e-01
1.502947832348402e-02	-9.830166e-01	-1.247105e-01
1.512947832348402e-02	-9.270355e-01	-5.535591e-01
1.522947832348402e-02	-8.341682e-01	-9.606079e-01
1.532947832348402e-02	-7.081097e-01	-1.329675e+00
1.542947832348402e-02	-5.538759e-01	-1.646089e+00
1.552947832348402e-02	-3.776036e-01	-1.897268e+00
1.562947832348402e-02	-1.863066e-01	-2.073224e+00
1.572947832348402e-02	1.240336e-02	-2.166959e+00
1.582947832348402e-02	2.106198e-01	-2.174743e+00
1.592947832348402e-02	4.004558e-01	-2.096263e+00
1.602947832348402e-02	5.743579e-01	-1.934635e+00
1.612947832348402e-02	7.254065e-01	-1.696279e+00
1.622947832348402e-02	8.475916e-01	-1.390668e+00
1.632947832348402e-02	9.360514e-01	-1.029947e+00
1.642947832348402e-02	9.872662e-01	-6.284546e-01
1.652667232401340e-02	9.994069e-01	-2.142205e-01
1.658467117602588e-02	9.887220e-01	3.825319e-02
1.667893607454809e-02	9.431960e-01	4.451317e-01
1.677893607454809e-02	8.584895e-01	8.589436e-01
1.687893607454809e-02	7.396240e-01	1.238454e+00
1.697893607454809e-02	5.913293e-01	1.568580e+00
1.707893607454809e-02	4.195059e-01	1.836202e+00
1.717893607454809e-02	2.309906e-01	2.030687e+00
1.727893607454808e-02	3.328423e-02	2.144306e+00
1.737893607454808e-02	-1.657465e-01	2.172551e+00
1.747893607454808e-02	-3.581822e-01	2.114304e+00
1.757893607454808e-02	-5.363660e-01	1.971889e+00
1.767893607454808e-02	-6.932082e-01	1.750975e+00
1.777893607454808e-02	-8.224678e-01	1.460355e+00
1.787893607454808e-02	-9.190019e-01	1.111592e+00
1.797893607454808e-02	-9.789693e-01	7.185622e-01
1.807893607454808e-02	-9.999841e-01	2.969014e-01
1.812788083340520e-02	-9.957572e-01	8.459318e-02
1.820398759264999e-02	-9.703274e-01	-2.460464e-01
1.830398759264999e-02	-9.030319e-01	-6.700945e-01
1.840398759264999e-02	-7.998052e-01	-1.067537e+00
1.850398759264999e-02	-6.647546e-01	-1.422565e+00
1.860398759264999e-02	-5.032538e-01	-1.721058e+00
1.870398759264999e-02	-3.217287e-01	-1.951141e+00
1.880398759264999e-02	-1.274022e-01	-2.103662e+00
1.890398759264999e-02	7.199357e-02	-2.172553e+00
1.900398759264998e-02	2.685247e-01	-2.155073e+00
1.910398759264998e-02	4.543715e-01	-2.051915e+00
1.920398759264998e-02	6.221389e-01	-1.867180e+00
1.930398759264998e-02	7.651518e-01	-1.608214e+00
1.940398759264998e-02	8.777196e-01	-1.285316e+00
1.950398759264998e-02	9.553635e-01	-9.113278e-01
1.960398759264998e-02	9.949939e-01	-5.011219e-01
1.968258390265881e-02	9.983796e-01	-1.634627e-01
1.974764851403677e-02	9.825778e-01	1.196499e-01
1.984764851403677e-02	9.261420e-01	5.483338e-01
1.994764851403677e-02	8.328555e-01	9.551892e-01
2.004764851403677e-02	7.064301e-01	1.324038e+00
2.014764851403677e-02	5.518962e-01	1.640213e+00
2.024764851403677e-02	3.754026e-01	1.891143e+00
2.034764851403677e-02	1.839719e-01	2.066851e+00
2.044764851403677e-02	-1.477894e-02	2.160351e+00
2.054764851403677e-02	-2.129418e-01	2.167928e+00
2.064764851403677e-02	-4.026317e-01	2.089283e+00
2.074764851403677e-02	-5.763011e-01	1.927550e+00
2.084764851403677e-02	-7.270398e-01	1.689164e+00
2.094764851403677e-02	-8.488500e-01	1.383611e+00
2.104764851403677e-02	-9.368848e-01	1.023048e+00
2.114764851403677e-02	-9.876413e-01	6.218204e-01
2.124410478012908e-02	-9.993755e-01	2.111235e-01
2.130238703476749e-02	-9.885011e-01	-4.229714e-02
2.139710831836391e-02	-9.424026e-01	-4.506277e-01
2.149710831836391e-02	-8.572665e-01	-8.637855e-01
2.159710831836391e-02	-7.380202e-01	-1.242546e+00
2.169710831836391e-02	-5.894085e-01	-1.571842e+00
2.179710831836391e-02	-4.173444e-01	-1.838573e+00
2.189710831836391e-02	-2.286744e-01	-2.032128e+00
2.199710831836391e-02	-3.090555e-02	-2.144806e+00
2.209710831836391e-02	1.680930e-01	-2.172125e+00
2.219710831836391e-02	3.604032e-01	-2.112995e+00
2.229710831836391e-02	5.383732e-01	-1.969769e+00
2.239710831836391e-02	6.949215e-01	-1.748141e+00
2.249710831836391e-02	8.238192e-01	-1.456929e+00
2.259710831836391e-02	9.199376e-01	-1.107715e+00
2.269710831836391e-02	9.794521e-01	-7.143890e-01
2.279710831836390e-02	9.999947e-01	-2.925977e-01
2.284530468724378e-02	9.956754e-01	-8.353951e-02
2.292168842519948e-02	9.699787e-01	2.482349e-01
2.302168842519948e-02	9.024132e-01	6.721259e-01
2.312168842519948e-02	7.989411e-01	1.069336e+00
2.322168842519948e-02	6.636796e-01	1.424067e+00
2.332168842519948e-02	5.020106e-01	1.722211e+00
2.342168842519948e-02	3.203668e-01	1.951909e+00
2.352168842519948e-02	1.259758e-01	2.104027e+00
2.362168842519947e-02	-7.342777e-02	2.172514e+00
2.372168842519947e-02	-2.699097e-01	2.154647e+00
2.382168842519947e-02	-4.556520e-01	2.051139e+00
2.392168842519947e-02	-6.232641e-01	1.866109e+00
2.402168842519947e-02	-7.660769e-01	1.606917e+00
2.412168842519947e-02	-8.784078e-01	1.283877e+00
2.422168842519947e-02	-9.557873e-01	9.098391e-01
2.432168842519947e-02	-9.951365e-01	4.996852e-01
2.439983476551747e-02	-9.983488e-01	1.640840e-01
2.446506857651266e-02	-9.824144e-01	-1.196157e-01
2.456506857651266e-02	-9.258109e-01	-5.480320e-01
2.466506857651266e-02	-8.323698e-01	-9.545702e-01
2.476506857651266e-02	-7.058091e-01	-1.323058e+00
2.486506857651266e-02	-5.511646e-01	-1.638839e+00
2.496506857651266e-02	-3.745896e-01	-1.889348e+00
2.506506857651266e-02	-1.831098e-01	-2.064622e+00
2.516506857651266e-02	1.565585e-02	-2.157686e+00
2.526506857651266e-02	2.137986e-01	-2.164839e+00
2.536506857651266e-02	4.034343e-01	-2.085793e+00
2.546506857651266e-02	5.770176e-01	-1.923693e+00
2.556506857651266e-02	7.276417e-01	-1.684986e+00
2.566506857651266e-02	8.493132e-01	-1.379168e+00
2.576506857651266e-02	9.371910e-01	-1.018404e+00
2.586506857651266e-02	9.877784e-01	-6.170428e-01
2.596125244395289e-02	9.993636e-01	-2.074556e-01
2.601963926760609e-02	9.884191e-01	4.641840e-02
2.611452892315579e-02	9.421086e-01	4.554323e-01
2.621452892315579e-02	8.568141e-01	8.684783e-01
2.631452892315578e-02	7.374274e-01	1.247066e+00
2.641452892315578e-02	5.886989e-01	1.576136e+00
2.651452892315578e-02	4.165463e-01	1.842600e+00
2.661452892315578e-02	2.278195e-01	2.035857e+00
2.671452892315578e-02	3.002787e-02	2.148221e+00
2.681452892315578e-02	-1.689585e-01	2.175223e+00
2.691452892315578e-02	-3.612221e-01	2.115788e+00
2.701452892315578e-02	-5.391129e-01	1.972282e+00
2.711452892315578e-02	-6.955526e-01	1.750412e+00
2.721452892315578e-02	-8.243166e-01	1.459006e+00
2.731452892315578e-02	-9.202815e-01	1.109656e+00
2.741452892315578e-02	-9.796288e-01	7.162613e-01
2.751452892315578e-02	-9.999971e-01	2.944708e-01
2.756244916429523e-02	-9.956450e-01	8.663878e-02
2.763893508952502e-02	-9.698495e-01	-2.455062e-01
2.773893508952502e-02	-9.021845e-01	-6.692670e-01
2.783893508952501e-02	-7.986220e-01	-1.066309e+00
2.793893508952501e-02	-6.632827e-01	-1.420838e+00
2.803893508952501e-02	-5.015517e-01	-1.718751e+00
2.813893508952501e-02	-3.198642e-01	-1.948197e+00
2.823893508952501e-02	-1.254494e-01	-2.100050e+00
2.833893508952501e-02	7.395687e-02	-2.168267e+00
2.843893508952501e-02	2.704205e-01	-2.150134e+00
2.853893508952501e-02	4.561242e-01	-2.046372e+00
2.863893508952501e-02	6.236789e-01	-1.861109e+00
2.873893508952501e-02	7.664178e-01	-1.601713e+00
2.883893508952501e-02	8.786612e-01	-1.278504e+00
2.893893508952501e-02	9.559432e-01	-9.043382e-01
2.903893508952501e-02	9.951887e-01	-4.941009e-01
2.911691539807524e-02	9.983373e-01	-1.591844e-01
2.918221162347753e-02	9.823539e-01	1.247901e-01
2.928221162347753e-02	9.256886e-01	5.531897e-01
2.938221162347753e-02	8.321905e-01	9.596840e-01
2.948221162347753e-02	7.055799e-01	1.328104e+00
2.958221162347753e-02	5.508947e-01	1.643795e+00
2.968221162347753e-02	3.742896e-01	1.894199e+00
2.978221162347753e-02	1.827917e-01	2.069356e+00
2.988221162347753e-02	-1.597932e-02	2.162297e+00
2.998221162347752e-02	-2.141146e-01	2.169325e+00
3.008221162347752e-02	-4.037303e-01	2.090160e+00
3.018221162347752e-02	-5.772818e-01	1.927951e+00
3.028221162347752e-02	-7.278636e-01	1.689150e+00
3.038221162347752e-02	-8.494840e-01	1.383257e+00
3.048221162347752e-02	-9.373038e-01	1.022439e+00
3.058221162347752e-02	-9.878288e-01	6.210498e-01
3.067829499758149e-02	-9.993593e-01	2.118927e-01
3.073672038889075e-02	-9.883887e-01	-4.213569e-02
3.083167214098638e-02	-9.419999e-01	-4.513797e-01
3.093167214098638e-02	-8.566471e-01	-8.643599e-01
3.103167214098638e-02	-7.372086e-01	-1.242857e+00
3.113167214098638e-02	-5.884370e-01	-1.571816e+00
3.123167214098638e-02	-4.162518e-01	-1.838149e+00
3.133167214098638e-02	-2.275041e-01	-2.031264e+00
3.143167214098638e-02	-2.970416e-02	-2.143477e+00
3.153167214098639e-02	1.692777e-01	-2.170325e+00
3.163167214098639e-02	3.615241e-01	-2.110739e+00
3.173167214098639e-02	5.393856e-01	-1.967090e+00
3.183167214098639e-02	6.957853e-01	-1.745092e+00
3.193167214098640e-02	8.245000e-01	-1.453576e+00
3.203167214098640e-02	9.204082e-01	-1.104139e+00
3.213167214098640e-02	9.796938e-01	-7.106830e-01
3.223167214098641e-02	9.999979e-01	-2.888599e-01
3.227949054089473e-02	9.956338e-01	-8.146504e-02
3.235601415381582e-02	9.698018e-01	2.508392e-01
3.245601415381582e-02	9.021001e-01	6.745790e-01
3.255601415381582e-02	7.985042e-01	1.071583e+00
3.265601415381583e-02	6.631362e-01	1.426058e+00
3.275601415381583e-02	5.013824e-01	1.723906e+00
3.285601415381583e-02	3.196788e-01	1.953276e+00
3.295601415381583e-02	1.252553e-01	2.105045e+00
3.305601415381584e-02	-7.415201e-02	2.173175e+00
3.315601415381584e-02	-2.706088e-01	2.154955e+00
3.325601415381584e-02	-4.562983e-01	2.051109e+00
3.335601415381585e-02	-6.238319e-01	1.865767e+00
3.345601415381585e-02	-7.665434e-01	1.606302e+00
3.355601415381585e-02	-8.787547e-01	1.283035e+00
3.365601415381585e-02	-9.560006e-01	9.088254e-01
3.375601415381586e-02	-9.952078e-01	4.985593e-01
3.383393322520647e-02	-9.983331e-01	1.638959e-01
3.389925246840842e-02	-9.823316e-01	-1.201798e-01
3.399925246840842e-02	-9.256434e-01	-5.485737e-01
3.409925246840843e-02	-8.321243e-01	-9.550527e-01
3.419925246840843e-02	-7.054954e-01	-1.323448e+00
3.429925246840843e-02	-5.507951e-01	-1.639107e+00
3.439925246840844e-02	-3.741790e-01	-1.889473e+00
3.449925246840844e-02	-1.826744e-01	-2.064586e+00
3.459925246840844e-02	1.609862e-02	-2.157480e+00
3.469925246840844e-02	2.142311e-01	-2.164461e+00
3.479925246840845e-02	4.038395e-01	-2.085250e+00
3.489925246840845e-02	5.773792e-01	-1.922998e+00
3.499925246840845e-02	7.279454e-01	-1.684160e+00
3.509925246840846e-02	8.495469e-01	-1.378236e+00
3.519925246840846e-02	9.373454e-01	-1.017397e+00
3.529925246840846e-02	9.878473e-01	-6.159976e-01
3.539529878011877e-02	9.993576e-01	-2.069995e-01
3.545373839400220e-02	9.883775e-01	4.708500e-02
3.554871304496940e-02	9.419598e-01	4.564117e-01
3.564871304496940e-02	8.565854e-01	8.693643e-01
3.574871304496940e-02	7.371280e-01	1.247824e+00
3.584871304496941e-02	5.883405e-01	1.576736e+00
3.594871304496941e-02	4.161432e-01	1.843016e+00
3.604871304496941e-02	2.273878e-01	2.036072e+00
3.614871304496942e-02	2.958478e-02	2.148223e+00
